! Created Sun Dec  3 19:34:31 2023
# hz S ma R 50
! 4 Port Network Data from SP1.SP block
! freq  magS11  angS11  magS12  angS12  magS13  angS13  magS14  angS14  
!       magS21  angS21  magS22  angS22  magS23  angS23  magS24  angS24  
!       magS31  angS31  magS32  angS32  magS33  angS33  magS34  angS34  
!       magS41  angS41  magS42  angS42  magS43  angS43  magS44  angS44  
!     
0       0.499775878                180        0.499969438                  0        0.499937027                  0        0.499869413                  0
                      0.499969438                  0         0.49970561                180        0.499869413                  0        0.499866759                  0
                      0.499937027                  0        0.499869413                  0        0.499775878                180        0.499969438                  0
                      0.499869413                  0        0.499866759                  0        0.499969438                  0         0.49970561                180

10000000        0.49973526         179.434689        0.499957784       -0.647118239        0.499900509       -0.795654535        0.499830704        -1.05307464
                      0.499957784       -0.647118239         0.49962832         179.169127        0.499830704        -1.05307464        0.499828141        -1.06127444
                      0.499900509       -0.795654535        0.499830704        -1.05307464         0.49973526         179.434689        0.499957784       -0.647118239
                      0.499830704        -1.05307464        0.499828141        -1.06127444        0.499957784       -0.647118239         0.49962832         179.169127

20000000       0.499698263         178.870956        0.499944092        -1.29318509        0.499839293        -1.58981752        0.499793715        -2.10399774
                      0.499944092        -1.29318509        0.499518707          178.34061        0.499793715        -2.10399774        0.499797762        -2.12034154
                      0.499839293        -1.58981752        0.499793715        -2.10399774        0.499698263         178.870956        0.499944092        -1.29318509
                      0.499793715        -2.10399774        0.499797762        -2.12034154        0.499944092        -1.29318509        0.499518707          178.34061

30000000       0.499672318         178.308571        0.499931718        -1.93879066        0.499754429        -2.38318006        0.499761377        -3.15370081
                      0.499931718        -1.93879066        0.499384873         177.513994        0.499761377        -3.15370081        0.499777184        -3.17813386
                      0.499754429        -2.38318006        0.499761377        -3.15370081        0.499672318         178.308571        0.499931718        -1.93879066
                      0.499761377        -3.15370081        0.499777184        -3.17813386        0.499931718        -1.93879066        0.499384873         177.513994

40000000       0.499658801         177.747499        0.499920806        -2.58406753        0.499646348        -3.17587841        0.499734345        -4.20237431
                      0.499920806        -2.58406753        0.499228538         176.689215        0.499734345        -4.20237431        0.499767085        -4.23483155
                      0.499646348        -3.17587841        0.499734345        -4.20237431        0.499658801         177.747499        0.499920806        -2.58406753
                      0.499734345        -4.20237431        0.499767085        -4.23483155        0.499920806        -2.58406753        0.499228538         176.689215

50000000       0.499660041         177.187596        0.499911603        -3.22909939        0.499515735         -3.9680084        0.499713875        -5.25017544
                      0.499911603        -3.22909939        0.499052701         175.866098        0.499713875        -5.25017544        0.499768761        -5.29058227
                      0.499515735         -3.9680084        0.499713875        -5.25017544        0.499660041         177.187596        0.499911603        -3.22909939
                      0.499713875        -5.25017544        0.499768761        -5.29058227        0.499911603        -3.22909939        0.499052701         175.866098

60000000       0.499677946         176.628637        0.499904294        -3.87395589        0.499363136        -4.75966391        0.499701027        -6.29727625
                      0.499904294        -3.87395589         0.49885985         175.044361        0.499701027        -6.29727625        0.499783311         -6.3455498
                      0.499363136        -4.75966391        0.499701027        -6.29727625        0.499677946         176.628637        0.499904294        -3.87395589
                      0.499701027        -6.29727625        0.499783311         -6.3455498        0.499904294        -3.87395589         0.49885985         175.044361

70000000       0.499713666         176.070365         0.49989897          -4.518697         0.49918887        -5.55093388        0.499696459        -7.34385041
                       0.49989897          -4.518697        0.498651503         174.223686        0.499696459        -7.34385041        0.499811419        -7.39990003
                       0.49918887        -5.55093388        0.499696459        -7.34385041        0.499713666         176.070365         0.49989897          -4.518697
                      0.499696459        -7.34385041        0.499811419        -7.39990003         0.49989897          -4.518697        0.498651503         174.223686

80000000       0.499767682         175.512537        0.499895649        -5.16337322        0.498993054        -6.34189565         0.49970046        -8.39005658
                      0.499895649        -5.16337322        0.498428307         173.403772         0.49970046        -8.39005658        0.499853388        -8.45378357
                      0.498993054        -6.34189565         0.49970046        -8.39005658        0.499767682         175.512537        0.499895649        -5.16337322
                       0.49970046        -8.39005658        0.499853388        -8.45378357        0.499895649        -5.16337322        0.498428307         173.403772

90000000       0.499840011         174.954944        0.499894302        -5.80802616        0.498775664        -7.13261188         0.49971306        -9.43603001
                      0.499894302        -5.80802616        0.498190293         172.584362         0.49971306        -9.43603001        0.499909252        -9.50732694
                      0.498775664        -7.13261188         0.49971306        -9.43603001        0.499840011         174.954944        0.499894302        -5.80802616
                       0.49971306        -9.43603001        0.499909252        -9.50732694        0.499894302        -5.80802616        0.498190293         172.584362

100000000       0.499930411         174.397416        0.499894878           -6.45269        0.498536597        -7.92313101        0.499734136        -10.4818813
                      0.499894878           -6.45269        0.497937141         171.765249        0.499734136        -10.4818813         0.49997889        -10.5606314
                      0.498536597        -7.92313101        0.499734136        -10.4818813        0.499930411         174.397416        0.499894878           -6.45269
                      0.499734136        -10.4818813         0.49997889        -10.5606314        0.499894878           -6.45269        0.497937141         171.765249

110000000        0.50003852         173.839817        0.499897319        -7.09739306        0.498275711        -8.71348924        0.499763493        -11.5276995
                      0.499897319        -7.09739306        0.497668357          170.94627        0.499763493        -11.5276995        0.500062106        -11.6137756
                      0.498275711        -8.71348924        0.499763493        -11.5276995         0.50003852         173.839817        0.499897319        -7.09739306
                      0.499763493        -11.5276995        0.500062106        -11.6137756        0.499897319        -7.09739306        0.497668357          170.94627

120000000       0.500163945         173.282039         0.49990157        -7.74215937         0.49799285        -9.50371313        0.499800915         -12.573556
                       0.49990157        -7.74215937          0.4973834         170.127299        0.499800915         -12.573556        0.500158684        -12.6668203
                       0.49799285        -9.50371313        0.499800915         -12.573556        0.500163945         173.282039         0.49990157        -7.74215937
                      0.499800915         -12.573556        0.500158684        -12.6668203         0.49990157        -7.74215937          0.4973834         170.127299

130000000       0.500306309         172.723994        0.499907579        -8.38700978        0.497687857        -10.2938219        0.499846195        -13.6195087
                      0.499907579        -8.38700978        0.497081736         169.308238        0.499846195        -13.6195087        0.500268414        -13.7198122
                      0.497687857        -10.2938219        0.499846195        -13.6195087        0.500306309         172.723994        0.499907579        -8.38700978
                      0.499846195        -13.6195087        0.500268414        -13.7198122        0.499907579        -8.38700978        0.497081736         169.308238

140000000       0.500465275          172.16561        0.499915303        -9.03196298        0.497360582        -11.0838294        0.499899144        -14.6656061
                      0.499915303        -9.03196298        0.496762876         168.489008        0.499899144        -14.6656061         0.50039111         -14.772788
                      0.497360582        -11.0838294        0.499899144        -14.6656061        0.500465275          172.16561        0.499915303        -9.03196298
                      0.499899144        -14.6656061         0.50039111         -14.772788        0.499915303        -9.03196298        0.496762876         168.489008

150000000       0.500640552         171.606825        0.499924703        -9.67703605        0.497010883        -11.8737455        0.499959601        -15.7118892
                      0.499924703        -9.67703605        0.496426386         167.669546        0.499959601        -15.7118892         0.50052661        -15.8257767
                      0.497010883        -11.8737455        0.499959601        -15.7118892        0.500640552         171.606825        0.499924703        -9.67703605
                      0.499959601        -15.7118892         0.50052661        -15.8257767        0.499924703        -9.67703605        0.496426386         167.669546

160000000       0.500831893         171.047585        0.499935747         -10.322245        0.496638624        -12.6635773        0.500027428        -16.7583942
                      0.499935747         -10.322245         0.49607188         166.849799        0.500027428        -16.7583942        0.500674783        -16.8788025
                      0.496638624        -12.6635773        0.500027428        -16.7583942        0.500831893         171.047585        0.499935747         -10.322245
                      0.500027428        -16.7583942        0.500674783        -16.8788025        0.499935747         -10.322245         0.49607188         166.849799

170000000       0.501039092         170.487841        0.499948408        -10.9676052         0.49624368        -13.4533298        0.500102513        -17.8051537
                      0.499948408        -10.9676052        0.495699025         166.029719        0.500102513        -17.8051537         0.50083552        -17.9318853
                       0.49624368        -13.4533298        0.500102513        -17.8051537        0.501039092         170.487841        0.499948408        -10.9676052
                      0.500102513        -17.8051537         0.50083552        -17.9318853        0.499948408        -10.9676052        0.495699025         166.029719

180000000        0.50126198         169.927549        0.499962663        -11.6131314        0.495825925        -14.2430062        0.500184764        -18.8521978
                      0.499962663        -11.6131314        0.495307525         165.209265        0.500184764        -18.8521978        0.501008735        -18.9850429
                      0.495825925        -14.2430062        0.500184764        -18.8521978         0.50126198         169.927549        0.499962663        -11.6131314
                      0.500184764        -18.8521978        0.501008735        -18.9850429        0.499962663        -11.6131314        0.495307525         165.209265

190000000       0.501500416         169.366663        0.499978491         -12.258838        0.495385242        -15.0326089        0.500274105         -19.899555
                      0.499978491         -12.258838        0.494897119         164.388397        0.500274105         -19.899555        0.501194361        -20.0382908
                      0.495385242        -15.0326089        0.500274105         -19.899555        0.501500416         169.366663        0.499978491         -12.258838
                      0.500274105         -19.899555        0.501194361        -20.0382908        0.499978491         -12.258838        0.494897119         164.388397

200000000       0.501754281         168.805144        0.499995876        -12.9047394        0.494921511        -15.8221392        0.500370477        -20.9472526
                      0.499995876        -12.9047394        0.494467571          163.56708        0.500370477        -20.9472526        0.501392346        -21.0916433
                      0.494921511        -15.8221392        0.500370477        -20.9472526        0.501754281         168.805144        0.499995876        -12.9047394
                      0.500370477        -20.9472526        0.501392346        -21.0916433        0.499995876        -12.9047394        0.494467571          163.56708

210000000       0.502023479         168.242949        0.500014802        -13.5508497        0.494434616        -16.6115975        0.500473831        -21.9953169
                      0.500014802        -13.5508497        0.494018667         162.745277        0.500473831        -21.9953169        0.501602651         -22.145114
                      0.494434616        -16.6115975        0.500473831        -21.9953169        0.502023479         168.242949        0.500014802        -13.5508497
                      0.500473831        -21.9953169        0.501602651         -22.145114        0.500014802        -13.5508497        0.494018667         162.745277

220000000       0.502307927          167.68004        0.500035255        -14.1971831        0.493924436        -17.4009838        0.500584127         -23.043774
                      0.500035255        -14.1971831        0.493550208         161.922955        0.500584127         -23.043774        0.501825248        -23.1987153
                      0.493924436        -17.4009838        0.500584127         -23.043774        0.502307927          167.68004        0.500035255        -14.1971831
                      0.500584127         -23.043774        0.501825248        -23.1987153        0.500035255        -14.1971831        0.493550208         161.922955

230000000       0.502607555         167.116375        0.500057221        -14.8437537        0.493390853        -18.1902976        0.500701336        -24.0926493
                      0.500057221        -14.8437537        0.493062007         161.100079        0.500701336        -24.0926493        0.502060117        -24.2524596
                      0.493390853        -18.1902976        0.500701336        -24.0926493        0.502607555         167.116375        0.500057221        -14.8437537
                      0.500701336        -24.0926493        0.502060117        -24.2524596        0.500057221        -14.8437537        0.493062007         161.100079

240000000       0.502922304         166.551917        0.500080689        -15.4905757        0.492833742        -18.9795376        0.500825433         -25.141968
                      0.500080689        -15.4905757        0.492553881         160.276617        0.500825433         -25.141968        0.502307248        -25.3063584
                      0.492833742        -18.9795376        0.500825433         -25.141968        0.502922304         166.551917        0.500080689        -15.4905757
                      0.500825433         -25.141968        0.502307248        -25.3063584        0.500080689        -15.4905757        0.492553881         160.276617

250000000       0.503252123         165.986626        0.500105647        -16.1376637        0.492252977        -19.7687022        0.500956398        -26.1917554
                      0.500105647        -16.1376637        0.492025658         159.452535        0.500956398        -26.1917554        0.502566633        -26.3604233
                      0.492252977        -19.7687022        0.500956398        -26.1917554        0.503252123         165.986626        0.500105647        -16.1376637
                      0.500956398        -26.1917554        0.502566633        -26.3604233        0.500105647        -16.1376637        0.492025658         159.452535

260000000       0.503596966         165.420463        0.500132082        -16.7850319        0.491648428        -20.5577895        0.501094217        -27.2420365
                      0.500132082        -16.7850319        0.491477165           158.6278        0.501094217        -27.2420365        0.502838273        -27.4146653
                      0.491648428        -20.5577895        0.501094217        -27.2420365        0.503596966         165.420463        0.500132082        -16.7850319
                      0.501094217        -27.2420365        0.502838273        -27.4146653        0.500132082        -16.7850319        0.491477165           158.6278

270000000       0.503956792         164.853389        0.500159984        -17.4326951        0.491019962        -21.3467968        0.501238878        -28.2928362
                      0.500159984        -17.4326951        0.490908231         157.802379        0.501238878        -28.2928362        0.503122172        -28.4690955
                      0.491019962        -21.3467968        0.501238878        -28.2928362        0.503956792         164.853389        0.500159984        -17.4326951
                      0.501238878        -28.2928362        0.503122172        -28.4690955        0.500159984        -17.4326951        0.490908231         157.802379

280000000       0.504331567         164.285365        0.500189339        -18.0806682        0.490367439        -22.1357212        0.501390372        -29.3441795
                      0.500189339        -18.0806682        0.490318687          156.97624        0.501390372        -29.3441795        0.503418336        -29.5237244
                      0.490367439        -22.1357212        0.501390372        -29.3441795        0.504331567         164.285365        0.500189339        -18.0806682
                      0.501390372        -29.3441795        0.503418336        -29.5237244        0.500189339        -18.0806682        0.490318687          156.97624

290000000       0.504721258         163.716352        0.500220136        -18.7289661        0.489690716        -22.9245592        0.501548694        -30.3960915
