! Created Mon Dec 11 02:30:20 2023
# hz S ri R 50
! 4 Port Network Data from SP1.SP block
! freq  reS11  imS11  reS12  imS12  reS13  imS13  reS14  imS14  
!       reS21  imS21  reS22  imS22  reS23  imS23  reS24  imS24  
!       reS31  imS31  reS32  imS32  reS33  imS33  reS34  imS34  
!       reS41  imS41  reS42  imS42  reS43  imS43  reS44  imS44  
!     
0       -0.49998616                  0        0.499995829                  0         0.49999717                  0         0.49999316                  0
                      0.499995829                  0        -0.49998415                  0         0.49999316                  0         0.49999516                  0
                       0.49999717                  0         0.49999316                  0        -0.49998616                  0        0.499995829                  0
                       0.49999316                  0         0.49999516                  0        0.499995829                  0        -0.49998415                  0

10000000      -0.499995181      0.00336570245        0.499986667     -0.00387210007        0.499961553      -0.0051981717        0.499946944     -0.00750302386
                      0.499986667     -0.00387210007       -0.499956391      0.00574125998        0.499946944     -0.00750302386        0.499948344      -0.0075740203
                      0.499961553      -0.0051981717        0.499946944     -0.00750302386       -0.499995181      0.00336570245        0.499986667     -0.00387210007
                      0.499946944     -0.00750302386        0.499948344      -0.0075740203        0.499986667     -0.00387210007       -0.499956391      0.00574125998

20000000      -0.499980738      0.00673179209        0.499946683     -0.00774420477        0.499846208       -0.010395091        0.499787793      -0.0150048742
                      0.499946683     -0.00774420477       -0.499825613       0.0114812995        0.499787793      -0.0150048742        0.499793392      -0.0151469267
                      0.499846208       -0.010395091        0.499787793      -0.0150048742       -0.499980738      0.00673179209        0.499946683     -0.00774420477
                      0.499787793      -0.0150048742        0.499793392      -0.0151469267        0.499946683     -0.00774420477       -0.499825613       0.0114812995

30000000      -0.499956652       0.0100986533        0.499880033      -0.0116163026        0.499653991      -0.0155894872        0.499522548      -0.0225043546
                      0.499880033      -0.0116163026       -0.499607663       0.0172188906        0.499522548      -0.0225043546         0.49953515      -0.0227175823
                      0.499653991      -0.0155894872        0.499522548      -0.0225043546       -0.499956652       0.0100986533        0.499880033      -0.0116163026
                      0.499522548      -0.0225043546         0.49953515      -0.0227175823        0.499880033      -0.0116163026       -0.499607663       0.0172188906

40000000        -0.4999229       0.0134666697        0.499786708      -0.0154883781        0.499384939      -0.0207800849        0.499151222      -0.0300002631
                      0.499786708      -0.0154883781       -0.499302563        0.022952803        0.499151222      -0.0300002631        0.499173633      -0.0302848446
                      0.499384939      -0.0207800849        0.499151222      -0.0300002631         -0.4999229       0.0134666697        0.499786708      -0.0154883781
                      0.499151222      -0.0300002631        0.499173633      -0.0302848446        0.499786708      -0.0154883781       -0.499302563        0.022952803

50000000      -0.499879451       0.0168362249        0.499666691      -0.0193604139        0.499039105      -0.0259656064        0.498673832      -0.0374913943
                      0.499666691      -0.0193604139       -0.498910342        0.028681805        0.498673832      -0.0374913943        0.498708866      -0.0378475682
                      0.499039105      -0.0259656064        0.498673832      -0.0374913943       -0.499879451       0.0168362249        0.499666691      -0.0193604139
                      0.498673832      -0.0374913943        0.498708866      -0.0378475682        0.499666691      -0.0193604139       -0.498910342        0.028681805

60000000      -0.499826263       0.0202077019        0.499519964      -0.0232323913        0.498616558      -0.0311447722          0.4980904      -0.0449765407
                      0.499519964      -0.0232323913       -0.498431039       0.0344046632          0.4980904      -0.0449765407         0.49814088      -0.0454046055
                      0.498616558      -0.0311447722          0.4980904      -0.0449765407       -0.499826263       0.0202077019        0.499519964      -0.0232323913
                        0.4980904      -0.0449765407         0.49814088      -0.0454046055        0.499519964      -0.0232323913       -0.498431039       0.0344046632

70000000      -0.499763288       0.0235814838        0.499346502      -0.0271042907        0.498117383      -0.0363163018        0.497400957      -0.0524544924
                      0.499346502      -0.0271042907       -0.497864702       0.0401201426        0.497400957      -0.0524544924        0.497469712      -0.0529548071
                      0.498117383      -0.0363163018        0.497400957      -0.0524544924       -0.499763288       0.0235814838        0.499346502      -0.0271042907
                      0.497400957      -0.0524544924        0.497469712      -0.0529548071        0.499346502      -0.0271042907       -0.497864702       0.0401201426

80000000      -0.499690466       0.0269579531        0.499146277      -0.0309760919         0.49754168      -0.0414789133        0.496605535      -0.0599240378
                      0.499146277      -0.0309760919       -0.497211388       0.0458270061        0.496605535      -0.0599240378         0.49669541      -0.0604970225
                       0.49754168      -0.0414789133        0.496605535      -0.0599240378       -0.499690466       0.0269579531        0.499146277      -0.0309760919
                      0.496605535      -0.0599240378         0.49669541      -0.0604970225        0.499146277      -0.0309760919       -0.497211388       0.0458270061

90000000      -0.499607728       0.0303374925        0.498919257      -0.0348477738        0.496889565      -0.0466313241        0.495704177      -0.0673839633
                      0.498919257      -0.0348477738       -0.496471162       0.0515240148        0.495704177      -0.0673839633        0.495818026      -0.0680300996
                      0.496889565      -0.0466313241        0.495704177      -0.0673839633       -0.499607728       0.0303374925        0.498919257      -0.0348477738
                      0.495704177      -0.0673839633        0.495818026      -0.0680300996        0.498919257      -0.0348477738       -0.496471162       0.0515240148

100000000      -0.499514998        0.033720484        0.498665405      -0.0387193151        0.496161173      -0.0517722506        0.494696928      -0.0748330535
                      0.498665405      -0.0387193151         -0.4956441       0.0572099274        0.494696928      -0.0748330535        0.494837624       -0.075552885
                      0.496161173      -0.0517722506        0.494696928      -0.0748330535       -0.499514998        0.033720484        0.498665405      -0.0387193151
                      0.494696928      -0.0748330535        0.494837624       -0.075552885        0.498665405      -0.0387193151         -0.4956441       0.0572099274

110000000      -0.499412188       0.0371073096        0.498384683       -0.042590694         0.49535665      -0.0569004083         0.49358384      -0.0822700909
                      0.498384683       -0.042590694       -0.494730286       0.0628834999         0.49358384      -0.0822700909        0.493754271      -0.0830642243
                       0.49535665      -0.0569004083         0.49358384      -0.0822700909       -0.499412188       0.0371073096        0.498384683       -0.042590694
                       0.49358384      -0.0822700909        0.493754271      -0.0830642243        0.498384683       -0.042590694       -0.494730286       0.0628834999

120000000      -0.499299203       0.0404983508        0.498077043      -0.0464618883        0.494476163      -0.0620145121        0.492364973       -0.089693856
                      0.498077043      -0.0464618883       -0.493729815       0.0685434858        0.492364973       -0.089693856        0.492568045      -0.0905629616
                      0.494476163      -0.0620145121        0.492364973       -0.089693856       -0.499299203       0.0404983508        0.498077043      -0.0464618883
                      0.492364973       -0.089693856        0.492568045      -0.0905629616        0.498077043      -0.0464618883       -0.493729815       0.0685434858

130000000      -0.499175936       0.0438939888        0.497742437      -0.0503328754        0.493519892       -0.067113276         0.49104039      -0.0971031273
                      0.497742437      -0.0503328754       -0.492642789       0.0741886354         0.49104039      -0.0971031273        0.491279031      -0.0980479402
                      0.493519892       -0.067113276         0.49104039      -0.0971031273       -0.499175936       0.0438939888        0.497742437      -0.0503328754
                       0.49104039      -0.0971031273        0.491279031      -0.0980479402        0.497742437      -0.0503328754       -0.492642789       0.0741886354

140000000      -0.499042274       0.0472946044        0.497380812      -0.0542036324        0.492488037      -0.0721954133        0.489610162       -0.104496681
                      0.497380812      -0.0542036324       -0.491469323       0.0798176956        0.489610162       -0.104496681        0.489887323       -0.105518002
                      0.492488037      -0.0721954133        0.489610162       -0.104496681       -0.499042274       0.0472946044        0.497380812      -0.0542036324
                      0.489610162       -0.104496681        0.489887323       -0.105518002        0.497380812      -0.0542036324       -0.491469323       0.0798176956

150000000      -0.498898092       0.0507005778        0.496992109      -0.0580741363         0.49138081      -0.0772596366        0.488074366       -0.111873291
                      0.496992109      -0.0580741363       -0.490209539       0.0854294099        0.488074366       -0.111873291        0.488393021       -0.112971987
                       0.49138081      -0.0772596366        0.488074366       -0.111873291       -0.498898092       0.0507005778        0.496992109      -0.0580741363
                      0.488074366       -0.111873291        0.488393021       -0.112971987        0.496992109      -0.0580741363       -0.490209539       0.0854294099

160000000      -0.498743256       0.0541122889        0.496576264      -0.0619443635        0.490198444      -0.0823046576        0.486433084       -0.119231729
                      0.496576264      -0.0619443635       -0.488863573       0.0910225182        0.486433084       -0.119231729        0.486796234       -0.120408736
                      0.490198444      -0.0823046576        0.486433084       -0.119231729       -0.498743256       0.0541122889        0.496576264      -0.0619443635
                      0.486433084       -0.119231729        0.486796234       -0.120408736        0.496576264      -0.0619443635       -0.488863573       0.0910225182

170000000      -0.498577623       0.0575301171        0.496133212      -0.0658142904        0.488941186      -0.0873291875        0.484686407       -0.126570763
                      0.496133212      -0.0658142904       -0.487431567       0.0965957562        0.484686407       -0.126570763        0.485097081       -0.127827085
                      0.488941186      -0.0873291875        0.484686407       -0.126570763       -0.498577623       0.0575301171        0.496133212      -0.0658142904
                      0.484686407       -0.126570763        0.485097081       -0.127827085        0.496133212      -0.0658142904       -0.487431567       0.0965957562

180000000      -0.498401042       0.0609544411        0.495662879      -0.0696838927        0.487609301      -0.0923319365         0.48283443        -0.13388916
                      0.495662879      -0.0696838927       -0.485913676        0.102147855         0.48283443        -0.13388916        0.483295686       -0.135225873
                      0.487609301      -0.0923319365         0.48283443        -0.13388916       -0.498401042       0.0609544411        0.495662879      -0.0696838927
                       0.48283443        -0.13388916        0.483295686       -0.135225873        0.495662879      -0.0696838927       -0.485913676        0.102147855

190000000       -0.49821335       0.0643856393        0.495165188      -0.0735531462        0.486203071      -0.0973116143        0.480877254       -0.141185682
                      0.495165188      -0.0735531462       -0.484310066        0.107677543        0.480877254       -0.141185682        0.481392185       -0.142603935
                      0.486203071      -0.0973116143        0.480877254       -0.141185682        -0.49821335       0.0643856393        0.495165188      -0.0735531462
                      0.480877254       -0.141185682        0.481392185       -0.142603935        0.495165188      -0.0735531462       -0.484310066        0.107677543

200000000      -0.498014374       0.0678240891        0.494640057       -0.077422026        0.484722795        -0.10226693        0.478814989       -0.148459092
                      0.494640057       -0.077422026       -0.482620914         0.11318354        0.478814989       -0.148459092        0.479386719       -0.149960104
                      0.484722795        -0.10226693        0.478814989       -0.148459092       -0.498014374       0.0678240891        0.494640057       -0.077422026
                      0.478814989       -0.148459092        0.479386719       -0.149960104        0.494640057       -0.077422026       -0.482620914         0.11318354

210000000      -0.497803936       0.0712701677        0.494087398       -0.081290507        0.483168788       -0.107196591        0.476647748       -0.155708144
                      0.494087398       -0.081290507       -0.480846406        0.118664566        0.476647748       -0.155708144         0.47727944       -0.157293215
                      0.483168788       -0.107196591        0.476647748       -0.155708144       -0.497803936       0.0712701677        0.494087398       -0.081290507
                      0.476647748       -0.155708144         0.47727944       -0.157293215        0.494087398       -0.081290507       -0.480846406        0.118664566

220000000      -0.497581843       0.0747242513        0.493507119      -0.0851585636        0.481541386       -0.112099305        0.474375654       -0.162931595
                      0.493507119      -0.0851585636       -0.478986744        0.124119331        0.474375654       -0.162931595        0.475070508       -0.164602097
                      0.481541386       -0.112099305        0.474375654       -0.162931595       -0.497581843       0.0747242513        0.493507119      -0.0851585636
                      0.474375654       -0.162931595        0.475070508       -0.164602097        0.493507119      -0.0851585636       -0.478986744        0.124119331

230000000      -0.497347894       0.0781867156        0.492899122      -0.0890261697        0.479840939       -0.116973779        0.471998835       -0.170128193
                      0.492899122      -0.0890261697       -0.477042138        0.129546543        0.471998835       -0.170128193        0.472760091       -0.171885583
                      0.479840939       -0.116973779        0.471998835       -0.170128193       -0.497347894       0.0781867156        0.492899122      -0.0890261697
                      0.471998835       -0.170128193        0.472760091       -0.171885583        0.492899122      -0.0890261697       -0.477042138        0.129546543

240000000      -0.497101881       0.0816579355        0.492263302      -0.0928932988        0.478067817       -0.121818719        0.469517425       -0.177296687
                      0.492263302      -0.0928932988       -0.475012811        0.134944903        0.469517425       -0.177296687        0.470348367         -0.1791425
                      0.478067817       -0.121818719        0.469517425       -0.177296687       -0.497101881       0.0816579355        0.492263302      -0.0928932988
                      0.469517425       -0.177296687        0.470348367         -0.1791425        0.492263302      -0.0928932988       -0.475012811        0.134944903

250000000      -0.496843583       0.0851382852        0.491599551      -0.0967599236        0.476222405       -0.126632829        0.466931566        -0.18443582
                      0.491599551      -0.0967599236       -0.472899001        0.140313105        0.466931566        -0.18443582        0.467835522       -0.186371675
                      0.476222405       -0.126632829        0.466931566        -0.18443582       -0.496843583       0.0851382852        0.491599551      -0.0967599236
                      0.466931566        -0.18443582        0.467835522       -0.186371675        0.491599551      -0.0967599236       -0.472899001        0.140313105

260000000       -0.49657277       0.0886281382        0.490907754       -0.100626016        0.474305111       -0.131414814        0.464241407       -0.191544331
                      0.490907754       -0.100626016       -0.470700955        0.145649841        0.464241407       -0.191544331        0.465221751       -0.193571935
                      0.474305111       -0.131414814        0.464241407       -0.191544331        -0.49657277       0.0886281382        0.490907754       -0.100626016
                      0.464241407       -0.191544331        0.465221751       -0.193571935        0.490907754       -0.100626016       -0.470700955        0.145649841

270000000      -0.496289203       0.0921278673        0.490187788       -0.104491548        0.472316357       -0.136163378        0.461447103       -0.198620955
                      0.490187788       -0.104491548       -0.468418937        0.150953792        0.461447103       -0.198620955         0.46250726       -0.200742105
                      0.472316357       -0.136163378        0.461447103       -0.198620955       -0.496289203       0.0921278673        0.490187788       -0.104491548
                      0.461447103       -0.198620955         0.46250726       -0.200742105        0.490187788       -0.104491548       -0.468418937        0.150953792

280000000      -0.495992631       0.0956378441        0.489439528        -0.10835649        0.470256586       -0.140877223        0.458548816       -0.205664424
                      0.489439528        -0.10835649       -0.466053222        0.156223634        0.458548816       -0.205664424        0.459692261       -0.207881008
                      0.470256586       -0.140877223        0.458548816       -0.205664424       -0.495992631       0.0956378441        0.489439528        -0.10835649
                      0.458548816       -0.205664424        0.459692261       -0.207881008        0.489439528        -0.10835649       -0.466053222        0.156223634

290000000      -0.495682795         0.09915844        0.488662837       -0.112220811        0.468126258       -0.145555051        0.455546716       -0.212673466
