! Created Tue Dec  5 16:04:49 2023
! List of port names and net name(s): example Port n = <port_name> <net_name1> <net_name2> ...
! Port 1 = P1 P1 
! Port 2 = P2 P2 
! Port 3 = P3 P3 
! Port 4 = P4 P4 
# hz S ma R 50
! 4 Port Network Data from data block
! freq  magS11  angS11  magS12  angS12  magS13  angS13  magS14  angS14  
!       magS21  angS21  magS22  angS22  magS23  angS23  magS24  angS24  
!       magS31  angS31  magS32  angS32  magS33  angS33  magS34  angS34  
!       magS41  angS41  magS42  angS42  magS43  angS43  magS44  angS44  
!     
0               0.5                180        0.499999999                  0                0.5                  0        0.499999999                  0
                      0.499999999                  0                0.5                180        0.499999999                  0        0.499999999                  0
                              0.5                  0        0.499999999                  0                0.5                180        0.499999999                  0
                      0.499999999                  0        0.499999999                  0        0.499999999                  0                0.5                180

9.30328308               0.5                180        0.499999999    -4.31956402e-07                0.5     -5.6893961e-07        0.499999999    -7.47729053e-07
                      0.499999999    -4.31956402e-07                0.5         179.999999        0.499999999    -7.52661731e-07        0.499999999    -8.44009157e-07
                              0.5     -5.6893961e-07        0.499999999    -7.52661731e-07                0.5                180        0.499999999    -4.31995291e-07
                      0.499999999    -7.47729053e-07        0.499999999    -8.44009157e-07        0.499999999    -4.31995291e-07                0.5         179.999999

93.0328308               0.5         179.999997        0.499999999    -4.31956408e-06                0.5    -5.68939623e-06        0.499999999    -7.47729071e-06
                      0.499999999    -4.31956408e-06                0.5         179.999994        0.499999999    -7.52661719e-06        0.499999999    -8.44009246e-06
                              0.5    -5.68939623e-06        0.499999999    -7.52661719e-06                0.5         179.999997        0.499999999    -4.31995291e-06
                      0.499999999    -7.47729071e-06        0.499999999    -8.44009246e-06        0.499999999    -4.31995291e-06                0.5         179.999994

930.328308               0.5         179.999966        0.499999999    -4.31956408e-05                0.5    -5.68939625e-05        0.499999999    -7.47729108e-05
                      0.499999999    -4.31956408e-05                0.5          179.99994        0.499999999     -7.5266175e-05        0.499999999    -8.44009251e-05
                              0.5    -5.68939625e-05        0.499999999     -7.5266175e-05                0.5         179.999966        0.499999999     -4.3199529e-05
                      0.499999999    -7.47729108e-05        0.499999999    -8.44009251e-05        0.499999999     -4.3199529e-05                0.5          179.99994

9303.28308               0.5         179.999664        0.499999999    -0.000431956408                0.5    -0.000568939625        0.499999994    -0.000747732711
                      0.499999999    -0.000431956408                0.5         179.999399        0.499999995    -0.000752664748        0.499999999     -0.00084400925
                              0.5    -0.000568939625        0.499999995    -0.000752664748                0.5         179.999664        0.499999999     -0.00043199529
                      0.499999994    -0.000747732711        0.499999999     -0.00084400925        0.499999999     -0.00043199529                0.5         179.999399

11712.1395               0.5         179.999578        0.499999999    -0.000543800899                0.5    -0.000716252552        0.499999991     -0.00094134239
                      0.499999999    -0.000543800899                0.5         179.999244        0.499999992    -0.000947551008        0.499999999     -0.00106254469
                              0.5    -0.000716252552        0.499999992    -0.000947551008                0.5         179.999578        0.499999999    -0.000543849848
                      0.499999991     -0.00094134239        0.499999999     -0.00106254469        0.499999999    -0.000543849848                0.5         179.999244

14744.71               0.5         179.999468        0.499999999     -0.00068460477                0.5     -0.00090170854        0.499999987      -0.0011850852
                      0.499999999     -0.00068460477                0.5         179.999048        0.499999988     -0.00119290049        0.499999999     -0.00133766451
                              0.5     -0.00090170854        0.499999988     -0.00119290049                0.5         179.999468        0.499999999    -0.000684666394
                      0.499999987      -0.0011850852        0.499999999     -0.00133766451        0.499999999    -0.000684666394                0.5         179.999048

18562.4901               0.5          179.99933        0.499999999    -0.000861866342                0.5      -0.0011351838         0.49999998     -0.00149194454
                      0.499999999    -0.000861866342                0.5         179.998801        0.499999982     -0.00150178162        0.499999999     -0.00168401984
                              0.5      -0.0011351838        0.499999982     -0.00150178162                0.5          179.99933        0.499999999    -0.000861943922
                       0.49999998     -0.00149194454        0.499999999     -0.00168401984        0.499999999    -0.000861943922                0.5         179.998801

23368.7905               0.5         179.999157        0.499999999     -0.00108502544                0.5     -0.00142911173        0.499999969     -0.00187826817
                      0.499999999     -0.00108502544                0.5         179.998491        0.499999972     -0.00189064875        0.499999999     -0.00212005537
                              0.5     -0.00142911173        0.499999972     -0.00189064875                0.5         179.999157        0.499999999     -0.00108512311
                      0.499999969     -0.00187826817        0.499999999     -0.00212005537        0.499999999     -0.00108512311                0.5         179.998491

29419.5642               0.5         179.998939        0.499999999      -0.0013659661                0.5     -0.00179914507        0.499999951     -0.00236464197
                      0.499999999      -0.0013659661                0.5           179.9981        0.499999957     -0.00238022107        0.499999999     -0.00266899157
                              0.5     -0.00179914507        0.499999957     -0.00238022107                0.5         179.998939        0.499999999     -0.00136608905
                      0.499999951     -0.00236464197        0.499999999     -0.00266899157        0.499999999     -0.00136608905                0.5           179.9981

37037.037               0.5         179.998664        0.499999999     -0.00171964943                0.5     -0.00226498946        0.499999923     -0.00297699252
                      0.499999999     -0.00171964943                0.5         179.997608        0.499999932     -0.00299659123        0.499999999     -0.00336006128
                              0.5     -0.00226498946        0.499999932     -0.00299659123                0.5         179.998664        0.499999999     -0.00171980423
                      0.499999923     -0.00297699252        0.499999999     -0.00336006128        0.499999999     -0.00171980423                0.5         179.997608

46626.8671               0.5         179.998318        0.499999999     -0.00216491037                0.5     -0.00285145279        0.499999878     -0.00374798032
                      0.499999999     -0.00216491037                0.5         179.996989        0.499999892     -0.00377262533        0.499999999     -0.00423006649
                              0.5     -0.00285145279        0.499999892     -0.00377262533                0.5         179.998318        0.499999999     -0.00216510524
                      0.499999878     -0.00374798032        0.499999999     -0.00423006649        0.499999999     -0.00216510524                0.5         179.996989

58699.7478       0.500000001         179.997883        0.499999999     -0.00272546068        0.499999999      -0.0035897664        0.499999808     -0.00471876407
                      0.499999999     -0.00272546068                0.5         179.996209         0.49999983     -0.00474973391        0.499999998      -0.0053253381
                      0.499999999      -0.0035897664         0.49999983     -0.00474973391        0.500000001         179.997883        0.499999999     -0.00272570601
                      0.499999808     -0.00471876407        0.499999998      -0.0053253381        0.499999999     -0.00272570601                0.5         179.996209

73898.6042       0.500000001         179.997335        0.499999999     -0.00343115172        0.499999999     -0.00451924817        0.499999697     -0.00594124213
                      0.499999999     -0.00343115172                0.5         179.995228        0.499999732     -0.00598011862        0.499999998     -0.00670420326
                      0.499999999     -0.00451924817        0.499999732     -0.00598011862        0.500000001         179.997335        0.499999999     -0.00343146057
                      0.499999697     -0.00594124213        0.499999998     -0.00670420326        0.499999999     -0.00343146057                0.5         179.995227

93032.8308       0.500000001         179.996644        0.499999999      -0.0043195641        0.499999998     -0.00568939644        0.499999521     -0.00748091426
                      0.499999999      -0.0043195641        0.499999999         179.993992        0.499999576     -0.00752963386        0.499999997     -0.00844009147
                      0.499999998     -0.00568939644        0.499999576     -0.00752963386        0.500000001         179.996644        0.499999999     -0.00431995291
                      0.499999521     -0.00748091426        0.499999997     -0.00844009147        0.499999999     -0.00431995291        0.499999999         179.993991

117121.395       0.500000002         179.995776        0.499999999     -0.00543800902        0.499999997     -0.00716252589        0.499999243     -0.00942056287
                      0.499999999     -0.00543800902        0.499999999         179.992437         0.49999933     -0.00948145517        0.499999996      -0.0106254449
                      0.499999997     -0.00716252589         0.49999933     -0.00948145517        0.500000002         179.995776        0.499999999     -0.00543849852
                      0.499999243     -0.00942056287        0.499999996      -0.0106254449        0.499999999     -0.00543849852        0.499999999         179.992436

147447.1       0.500000004         179.994682        0.499999999     -0.00684604777        0.499999996     -0.00901708612        0.499998806      -0.0118650385
                      0.499999999     -0.00684604777        0.499999998         179.990478        0.499998942      -0.0119408244        0.499999995       -0.013376641
                      0.499999996     -0.00901708612        0.499998942      -0.0119408244        0.500000004         179.994682        0.499999999     -0.00684666401
                      0.499998806      -0.0118650385        0.499999995       -0.013376641        0.499999999     -0.00684666401        0.499999998         179.990477

185624.901       0.500000006         179.993305        0.499999999     -0.00861866357        0.499999993      -0.0113518394         0.49999812      -0.0149475709
                      0.499999999     -0.00861866357        0.499999998         179.988013        0.499998333       -0.015041266        0.499999993      -0.0168401902
                      0.499999993      -0.0113518394        0.499998333       -0.015041266        0.500000006         179.993305        0.499999999     -0.00861943936
                       0.49999812      -0.0149475709        0.499999993      -0.0168401902        0.499999999     -0.00861943936        0.499999998         179.988011

233687.905       0.500000009         179.991571        0.499999998      -0.0108502547        0.499999989      -0.0142911202         0.49999705      -0.0188382385
                      0.499999998      -0.0108502547        0.499999996         179.984909        0.499997382       -0.018952861        0.499999989      -0.0212005373
                      0.499999989      -0.0142911202        0.499997382       -0.018952861        0.500000009         179.991571        0.499999998      -0.0108512314
                       0.49999705      -0.0188382385        0.499999989      -0.0212005373        0.499999998      -0.0108512314        0.499999996         179.984907

294195.642       0.500000014         179.989389        0.499999998      -0.0136596616        0.499999982      -0.0179914565        0.499995397      -0.0237555407
                      0.499999998      -0.0136596616        0.499999994         179.981002        0.499995909      -0.0238934547        0.499999983      -0.0266898829
                      0.499999982      -0.0179914565        0.499995909      -0.0238934547        0.500000014         179.989389        0.499999998      -0.0136608911
                      0.499995397      -0.0237555407        0.499999983      -0.0266898829        0.499999998      -0.0136608911        0.499999994         179.980999

370370.37       0.500000023         179.986641        0.499999997      -0.0171964955        0.499999972       -0.022649906         0.49999288      -0.0299823945
                      0.499999997      -0.0171964955         0.49999999         179.976082        0.499993655      -0.0301440507        0.499999973      -0.0336005475
                      0.499999972       -0.022649906        0.499993655      -0.0301440507        0.500000023         179.986641        0.499999997      -0.0171980434
                       0.49999288      -0.0299823945        0.499999973      -0.0336005475        0.499999997      -0.0171980434         0.49999999          179.97608

466268.671       0.500000036         179.983182        0.499999996       -0.021649106        0.499999956      -0.0285145508        0.499989129      -0.0378881047
                      0.499999996       -0.021649106        0.499999985          179.96989        0.499990273      -0.0380699582        0.499999958      -0.0423005345
                      0.499999956      -0.0285145508        0.499990273      -0.0380699582        0.500000036         179.983182        0.499999996      -0.0216510547
                      0.499989129      -0.0378881047        0.499999958      -0.0423005345        0.499999996      -0.0216510547        0.499999985         179.969886

586997.478       0.500000057         179.978828        0.499999994      -0.0272546113         0.49999993      -0.0358977097        0.499983713      -0.0479572881
                      0.499999994      -0.0272546113        0.499999976         179.962093        0.499985343      -0.0481490101        0.499999934       -0.053253121
                       0.49999993      -0.0358977097        0.499985343      -0.0481490101        0.500000057         179.978827        0.499999994      -0.0272570646
                      0.499983713      -0.0479572881        0.499999934       -0.053253121        0.499999994      -0.0272570646        0.499999976         179.962089

738986.042        0.50000009         179.973346        0.499999992      -0.0343115262        0.499999889      -0.0451925729        0.499976247      -0.0608242135
                      0.499999992      -0.0343115262        0.499999962         179.952278        0.499978453      -0.0610063012        0.499999897      -0.0670415142
                      0.499999889      -0.0451925729        0.499978453      -0.0610063012         0.50000009         179.973345        0.499999992      -0.0343146147
                      0.499976247      -0.0608242135        0.499999897      -0.0670415142        0.499999992      -0.0343146147        0.499999962         179.952272

930328.308       0.500000142         179.966445        0.499999988      -0.0431956589        0.499999824      -0.0568941463        0.499966581      -0.0773060385
                      0.499999988      -0.0431956589         0.49999994         179.939922        0.499969367      -0.0774504786        0.499999837      -0.0843998809
                      0.499999824      -0.0568941463        0.499969367      -0.0774504786        0.500000142         179.966444        0.499999988      -0.0431995471
                      0.499966581      -0.0773060385        0.499999837      -0.0843998809        0.499999988      -0.0431995471         0.49999994         179.939915

1171213.95       0.500000226         179.957756        0.499999981      -0.0543801259        0.499999721      -0.0716256218        0.499955039       -0.098424836
                      0.499999981      -0.0543801259        0.499999905         179.924366        0.499958263      -0.0985018853        0.499999742       -0.106252388
                      0.499999721      -0.0716256218        0.499958263      -0.0985018853        0.500000225         179.957756        0.499999981       -0.054385021
                      0.499955039       -0.098424836        0.499999742       -0.106252388        0.499999981       -0.054385021        0.499999905         179.924357

1474471       0.500000357         179.946819        0.499999971       -0.068460549        0.499999557      -0.0901715849        0.499942514       -0.125416406
                      0.499999971       -0.068460549        0.499999849         179.904783        0.499945891       -0.125406788        0.499999593       -0.133762306
                      0.499999557      -0.0901715849        0.499945891       -0.125406788        0.500000357         179.946818         0.49999997      -0.0684667117
                      0.499942514       -0.125416406        0.499999593       -0.133762306         0.49999997      -0.0684667117        0.499999849         179.904771

1856249.01       0.500000566         179.933049        0.499999954      -0.0861867778        0.499999299       -0.113519837        0.499930268       -0.159747668
                      0.499999954      -0.0861867778        0.499999761         179.880129        0.499933452       -0.159652566        0.499999358       -0.168393735
                      0.499999299       -0.113519837        0.499933452       -0.159652566        0.500000566         179.933048        0.499999954      -0.0861945364
                      0.499930268       -0.159747668        0.499999358       -0.168393735        0.499999954      -0.0861945364        0.499999761         179.880114

2336879.05       0.500000897         179.915715        0.499999928        -0.10850283        0.499998889       -0.142914076        0.499919463       -0.203180171
                      0.499999928        -0.10850283         0.49999962         179.849091        0.499922185        -0.20302038        0.499998988       -0.211989145
                      0.499998889       -0.142914076        0.499922185        -0.20302038        0.500000896         179.915714        0.499999927       -0.108512598
                      0.499919463       -0.203180171        0.499998988       -0.211989145        0.499999927       -0.108512598        0.499999621         179.849073

